UVM_INFO @ 0: reporter [RNTST] Running test WRAP_test...
UVM_INFO /apps/vcsmx/vcs/X-2025.06-SP1//etc/uvm-1.2/src/base/uvm_root.svh(594) @ 0: reporter [UVMTOP] UVM testbench topology:
--------------------------------------------------------------
Name                       Type                    Size  Value
--------------------------------------------------------------
uvm_test_top               WRAP_test               -     @341 
  axi4_env                 axi4_env                -     @354 
    cov                    axi4_coverage           -     @387 
      cov_export           uvm_analysis_imp        -     @396 
    m_agent                axi4_agent              -     @369 
      drv                  axi4_driver             -     @544 
        rsp_port           uvm_analysis_port       -     @563 
        seq_item_port      uvm_seq_item_pull_port  -     @553 
      mon                  axi4_monitor            -     @573 
        mon_ap             uvm_analysis_port       -     @583 
      seqr                 axi4_sequencer          -     @407 
        rsp_export         uvm_analysis_export     -     @416 
        seq_item_export    uvm_seq_item_pull_imp   -     @534 
        arbitration_queue  array                   0     -    
        lock_queue         array                   0     -    
        num_last_reqs      integral                32    'd1  
        num_last_rsps      integral                32    'd1  
    soc                    axi4_scoreboard         -     @378 
      soc_export           uvm_analysis_imp        -     @599 
--------------------------------------------------------------

UVM_INFO axi4_driver.sv(35) @ 0: uvm_test_top.axi4_env.m_agent.drv [axi4_driver] Start of Simulation...
UVM_INFO axi4_driver.sv(40) @ 0: uvm_test_top.axi4_env.m_agent.drv [PHASE] Preparing reset...
UVM_INFO axi4_scoreboard.sv(69) @ 5: uvm_test_top.axi4_env.soc [[SCO]] Reset = 0
UVM_INFO axi4_scoreboard.sv(69) @ 15: uvm_test_top.axi4_env.soc [[SCO]] Reset = 0
UVM_INFO axi4_scoreboard.sv(69) @ 25: uvm_test_top.axi4_env.soc [[SCO]] Reset = 0
UVM_INFO axi4_scoreboard.sv(69) @ 35: uvm_test_top.axi4_env.soc [[SCO]] Reset = 0
UVM_INFO axi4_driver.sv(97) @ 40: uvm_test_top.axi4_env.m_agent.drv [PHASE] Reset applied...
UVM_INFO axi4_driver.sv(52) @ 40: uvm_test_top.axi4_env.m_agent.drv [PHASE] Reset Completed...
UVM_INFO axi4_driver.sv(102) @ 45: uvm_test_top.axi4_env.m_agent.drv [axi4_driver]  WRAP Mode write transaction Start.....
UVM_INFO axi4_monitor.sv(59) @ 215: uvm_test_top.axi4_env.m_agent.mon [axi4_monitor] Write burst capture completed
UVM_INFO axi4_monitor.sv(63) @ 225: uvm_test_top.axi4_env.m_agent.mon [axi4_monitor] B channel handshake detected =0 
UVM_INFO axi4_monitor.sv(68) @ 225: uvm_test_top.axi4_env.m_agent.mon [axi4_monitor] Write channel capture completed
UVM_INFO axi4_driver.sv(130) @ 225: uvm_test_top.axi4_env.m_agent.drv [axi4_driver]  WRAP Mode write transaction Completed.....
UVM_INFO axi4_driver.sv(135) @ 235: uvm_test_top.axi4_env.m_agent.drv [axi4_driver]  WRAP Mode Read transaction Start.....
UVM_INFO axi4_monitor.sv(92) @ 415: uvm_test_top.axi4_env.m_agent.mon [axi4_monitor] Read burst capture completed
UVM_INFO axi4_scoreboard.sv(115) @ 415: uvm_test_top.axi4_env.soc [[SCO]] PASS rdata=4a0401b <==> mem=4a0401b
UVM_INFO axi4_scoreboard.sv(115) @ 415: uvm_test_top.axi4_env.soc [[SCO]] PASS rdata=4a0401c <==> mem=4a0401c
UVM_INFO axi4_scoreboard.sv(115) @ 415: uvm_test_top.axi4_env.soc [[SCO]] PASS rdata=4a0401d <==> mem=4a0401d
UVM_INFO axi4_scoreboard.sv(115) @ 415: uvm_test_top.axi4_env.soc [[SCO]] PASS rdata=4a0401e <==> mem=4a0401e
UVM_INFO axi4_scoreboard.sv(115) @ 415: uvm_test_top.axi4_env.soc [[SCO]] PASS rdata=4a0401f <==> mem=4a0401f
UVM_INFO axi4_scoreboard.sv(115) @ 415: uvm_test_top.axi4_env.soc [[SCO]] PASS rdata=4a04020 <==> mem=4a04020
UVM_INFO axi4_scoreboard.sv(115) @ 415: uvm_test_top.axi4_env.soc [[SCO]] PASS rdata=4a04021 <==> mem=4a04021
UVM_INFO axi4_scoreboard.sv(115) @ 415: uvm_test_top.axi4_env.soc [[SCO]] PASS rdata=4a04022 <==> mem=4a04022
UVM_INFO axi4_scoreboard.sv(115) @ 415: uvm_test_top.axi4_env.soc [[SCO]] PASS rdata=4a04023 <==> mem=4a04023
UVM_INFO axi4_scoreboard.sv(115) @ 415: uvm_test_top.axi4_env.soc [[SCO]] PASS rdata=4a04024 <==> mem=4a04024
UVM_INFO axi4_scoreboard.sv(115) @ 415: uvm_test_top.axi4_env.soc [[SCO]] PASS rdata=4a04025 <==> mem=4a04025
UVM_INFO axi4_scoreboard.sv(115) @ 415: uvm_test_top.axi4_env.soc [[SCO]] PASS rdata=4a04026 <==> mem=4a04026
UVM_INFO axi4_scoreboard.sv(115) @ 415: uvm_test_top.axi4_env.soc [[SCO]] PASS rdata=4a04027 <==> mem=4a04027
UVM_INFO axi4_scoreboard.sv(115) @ 415: uvm_test_top.axi4_env.soc [[SCO]] PASS rdata=4a04028 <==> mem=4a04028
UVM_INFO axi4_scoreboard.sv(115) @ 415: uvm_test_top.axi4_env.soc [[SCO]] PASS rdata=4a04029 <==> mem=4a04029
UVM_INFO axi4_scoreboard.sv(115) @ 415: uvm_test_top.axi4_env.soc [[SCO]] PASS rdata=0 <==> mem=0
UVM_INFO axi4_driver.sv(155) @ 415: uvm_test_top.axi4_env.m_agent.drv [axi4_driver]  WRAP Mode Read transaction Completed.....
UVM_INFO axi4_driver.sv(102) @ 425: uvm_test_top.axi4_env.m_agent.drv [axi4_driver]  WRAP Mode write transaction Start.....
UVM_INFO axi4_monitor.sv(59) @ 575: uvm_test_top.axi4_env.m_agent.mon [axi4_monitor] Write burst capture completed
UVM_INFO axi4_monitor.sv(63) @ 585: uvm_test_top.axi4_env.m_agent.mon [axi4_monitor] B channel handshake detected =0 
UVM_INFO axi4_monitor.sv(68) @ 585: uvm_test_top.axi4_env.m_agent.mon [axi4_monitor] Write channel capture completed
UVM_INFO axi4_driver.sv(130) @ 585: uvm_test_top.axi4_env.m_agent.drv [axi4_driver]  WRAP Mode write transaction Completed.....
UVM_INFO axi4_driver.sv(135) @ 595: uvm_test_top.axi4_env.m_agent.drv [axi4_driver]  WRAP Mode Read transaction Start.....
UVM_INFO axi4_monitor.sv(92) @ 755: uvm_test_top.axi4_env.m_agent.mon [axi4_monitor] Read burst capture completed
UVM_INFO axi4_scoreboard.sv(115) @ 755: uvm_test_top.axi4_env.soc [[SCO]] PASS rdata=6c83a6b5 <==> mem=6c83a6b5
UVM_INFO axi4_scoreboard.sv(115) @ 755: uvm_test_top.axi4_env.soc [[SCO]] PASS rdata=6c83a6b6 <==> mem=6c83a6b6
UVM_INFO axi4_scoreboard.sv(115) @ 755: uvm_test_top.axi4_env.soc [[SCO]] PASS rdata=6c83a6b7 <==> mem=6c83a6b7
UVM_INFO axi4_scoreboard.sv(115) @ 755: uvm_test_top.axi4_env.soc [[SCO]] PASS rdata=6c83a6b8 <==> mem=6c83a6b8
UVM_INFO axi4_scoreboard.sv(115) @ 755: uvm_test_top.axi4_env.soc [[SCO]] PASS rdata=6c83a6b9 <==> mem=6c83a6b9
UVM_INFO axi4_scoreboard.sv(115) @ 755: uvm_test_top.axi4_env.soc [[SCO]] PASS rdata=6c83a6ba <==> mem=6c83a6ba
UVM_INFO axi4_scoreboard.sv(115) @ 755: uvm_test_top.axi4_env.soc [[SCO]] PASS rdata=6c83a6bb <==> mem=6c83a6bb
UVM_INFO axi4_scoreboard.sv(115) @ 755: uvm_test_top.axi4_env.soc [[SCO]] PASS rdata=6c83a6bc <==> mem=6c83a6bc
UVM_INFO axi4_scoreboard.sv(115) @ 755: uvm_test_top.axi4_env.soc [[SCO]] PASS rdata=6c83a6bd <==> mem=6c83a6bd
UVM_INFO axi4_scoreboard.sv(115) @ 755: uvm_test_top.axi4_env.soc [[SCO]] PASS rdata=6c83a6be <==> mem=6c83a6be
UVM_INFO axi4_scoreboard.sv(115) @ 755: uvm_test_top.axi4_env.soc [[SCO]] PASS rdata=6c83a6bf <==> mem=6c83a6bf
UVM_INFO axi4_scoreboard.sv(115) @ 755: uvm_test_top.axi4_env.soc [[SCO]] PASS rdata=6c83a6c0 <==> mem=6c83a6c0
UVM_INFO axi4_scoreboard.sv(115) @ 755: uvm_test_top.axi4_env.soc [[SCO]] PASS rdata=6c83a6c1 <==> mem=6c83a6c1
UVM_INFO axi4_scoreboard.sv(115) @ 755: uvm_test_top.axi4_env.soc [[SCO]] PASS rdata=0 <==> mem=0
UVM_INFO axi4_driver.sv(155) @ 755: uvm_test_top.axi4_env.m_agent.drv [axi4_driver]  WRAP Mode Read transaction Completed.....
UVM_INFO axi4_driver.sv(102) @ 765: uvm_test_top.axi4_env.m_agent.drv [axi4_driver]  WRAP Mode write transaction Start.....
UVM_INFO axi4_monitor.sv(59) @ 895: uvm_test_top.axi4_env.m_agent.mon [axi4_monitor] Write burst capture completed
UVM_INFO axi4_monitor.sv(63) @ 905: uvm_test_top.axi4_env.m_agent.mon [axi4_monitor] B channel handshake detected =0 
UVM_INFO axi4_monitor.sv(68) @ 905: uvm_test_top.axi4_env.m_agent.mon [axi4_monitor] Write channel capture completed
UVM_INFO axi4_driver.sv(130) @ 905: uvm_test_top.axi4_env.m_agent.drv [axi4_driver]  WRAP Mode write transaction Completed.....
UVM_INFO axi4_driver.sv(135) @ 915: uvm_test_top.axi4_env.m_agent.drv [axi4_driver]  WRAP Mode Read transaction Start.....
UVM_INFO axi4_monitor.sv(92) @ 1055: uvm_test_top.axi4_env.m_agent.mon [axi4_monitor] Read burst capture completed
UVM_INFO axi4_scoreboard.sv(118) @ 1055: uvm_test_top.axi4_env.soc [[SCO]] FAIL addr=210 rdata=8792f113 <==> mem=8792f117
UVM_INFO axi4_scoreboard.sv(118) @ 1055: uvm_test_top.axi4_env.soc [[SCO]] FAIL addr=214 rdata=8792f114 <==> mem=8792f118
UVM_INFO axi4_scoreboard.sv(118) @ 1055: uvm_test_top.axi4_env.soc [[SCO]] FAIL addr=218 rdata=8792f115 <==> mem=8792f119
UVM_INFO axi4_scoreboard.sv(118) @ 1055: uvm_test_top.axi4_env.soc [[SCO]] FAIL addr=21c rdata=8792f116 <==> mem=8792f11a
UVM_INFO axi4_scoreboard.sv(115) @ 1055: uvm_test_top.axi4_env.soc [[SCO]] PASS rdata=8792f117 <==> mem=8792f117
UVM_INFO axi4_scoreboard.sv(115) @ 1055: uvm_test_top.axi4_env.soc [[SCO]] PASS rdata=8792f118 <==> mem=8792f118
UVM_INFO axi4_scoreboard.sv(115) @ 1055: uvm_test_top.axi4_env.soc [[SCO]] PASS rdata=8792f119 <==> mem=8792f119
UVM_INFO axi4_scoreboard.sv(115) @ 1055: uvm_test_top.axi4_env.soc [[SCO]] PASS rdata=8792f11a <==> mem=8792f11a
UVM_INFO axi4_scoreboard.sv(115) @ 1055: uvm_test_top.axi4_env.soc [[SCO]] PASS rdata=8792f11b <==> mem=8792f11b
UVM_INFO axi4_scoreboard.sv(115) @ 1055: uvm_test_top.axi4_env.soc [[SCO]] PASS rdata=8792f11c <==> mem=8792f11c
UVM_INFO axi4_scoreboard.sv(115) @ 1055: uvm_test_top.axi4_env.soc [[SCO]] PASS rdata=8792f11d <==> mem=8792f11d
UVM_INFO axi4_scoreboard.sv(115) @ 1055: uvm_test_top.axi4_env.soc [[SCO]] PASS rdata=0 <==> mem=0
UVM_INFO axi4_driver.sv(155) @ 1055: uvm_test_top.axi4_env.m_agent.drv [axi4_driver]  WRAP Mode Read transaction Completed.....
UVM_INFO /apps/vcsmx/vcs/X-2025.06-SP1//etc/uvm-1.2/src/base/uvm_objection.svh(1276) @ 1055: reporter [TEST_DONE] 'run' phase is ready to proceed to the 'extract' phase
UVM_ERROR axi4_env.sv(49) @ 1055: uvm_test_top.axi4_env [axi4_env] Check Failed : 4 Mismatched detected
UVM_INFO axi4_env.sv(55) @ 1055: uvm_test_top.axi4_env [Report] Total Coverage    : 84
UVM_INFO axi4_env.sv(56) @ 1055: uvm_test_top.axi4_env [Report] Total Reads       : 42
UVM_INFO axi4_env.sv(57) @ 1055: uvm_test_top.axi4_env [Report] Total PASS        : 38
UVM_INFO axi4_env.sv(58) @ 1055: uvm_test_top.axi4_env [Report] Total FAIL        : 4
UVM_INFO axi4_env.sv(63) @ 1055: uvm_test_top.axi4_env [PHASE] Clean up phase.....
UVM_INFO /apps/vcsmx/vcs/X-2025.06-SP1//etc/uvm-1.2/src/base/uvm_report_server.svh(904) @ 1055: reporter [UVM/REPORT/SERVER] 
--- UVM Report Summary ---

** Report counts by severity
UVM_INFO :   83
UVM_WARNING :    0
UVM_ERROR :    1
UVM_FATAL :    0
** Report counts by id
[PHASE]     4
[RNTST]     1
[Report]     4
[TEST_DONE]     1
[UVM/RELNOTES]     1
[UVMTOP]     1
[[SCO]]    46
[axi4_driver]    13
[axi4_env]     1
[axi4_monitor]    12

$finish called from file "/apps/vcsmx/vcs/X-2025.06-SP1//etc/uvm-1.2/src/base/uvm_root.svh", line 532.
$finish at simulation time                 1055
"axi4_interface.sv", 58: tb.vif.unnamed$$_0, 105 attempts, 3 match
"axi4_interface.sv", 66: tb.vif.unnamed$$_1, 105 attempts, 3 match
"axi4_interface.sv", 74: tb.vif.unnamed$$_2, 105 attempts, 3 match
"axi4_interface.sv", 82: tb.vif.unnamed$$_3, 105 attempts, 2 match
"axi4_interface.sv", 90: tb.vif.unnamed$$_4, 105 attempts, 3 match
           V C S   S i m u l a t i o n   R e p o r t 
Time: 1055 ns
CPU Time:      0.650 seconds;       Data structure size:   0.3Mb
Sat Feb 21 04:37:32 2026
Finding VCD file...
./waveform.vcd
[2026-02-21 09:37:33 UTC] Opening EPWave...
Done